
T1270 000:325 SEGGER J-Link V4.96d Log File (0001ms, 0283ms total)
T1270 000:325 DLL Compiled: Jan 29 2015 11:45:37 (0001ms, 0283ms total)
T1270 000:325 Logging started @ 2019-07-23 14:41 (0001ms, 0283ms total)
T1270 000:326 JLINK_SetWarnOutHandler(...) (0000ms, 0283ms total)
T1270 000:326 JLINK_OpenEx(...)
Firmware: J-Link V9 compiled Apr 20 2018 16:47:26
Hardware: V9.40
S/N: 59400616
Feature(s): RDI, FlashBP, FlashDL, JFlash, GDB  returns O.K. (0266ms, 0549ms total)
T1270 000:592 JLINK_SetErrorOutHandler(...) (0000ms, 0549ms total)
T1270 000:592 JLINK_ExecCommand("ProjectFile = "C:\Users\Administrator\Desktop\LPC54606\Projecct\MDK\JLinkSettings.ini"", ...)Device "UNSPECIFIED" selected.  returns 0x00 (0014ms, 0563ms total)
T1270 000:614 JLINK_ExecCommand("Device = LPC54606J512BD100", ...)Device "UNSPECIFIED" selected.  returns 0x00 (0003ms, 0566ms total)
T1270 000:617 JLINK_ExecCommand("DisableConnectionTimeout", ...)  returns 0x01 (0000ms, 0566ms total)
T1270 000:617 JLINK_GetHardwareVersion()  returns 0x16F30 (0000ms, 0566ms total)
T1270 000:617 JLINK_GetDLLVersion()  returns 49604 (0000ms, 0566ms total)
T1270 000:617 JLINK_GetFirmwareString(...) (0000ms, 0566ms total)
T1270 000:633 JLINK_GetDLLVersion()  returns 49604 (0000ms, 0566ms total)
T1270 000:633 JLINK_GetCompileDateTime() (0000ms, 0566ms total)
T1270 000:636 JLINK_GetFirmwareString(...) (0000ms, 0566ms total)
T1270 000:639 JLINK_GetHardwareVersion()  returns 0x16F30 (0000ms, 0566ms total)
T1270 000:651 JLINK_TIF_Select(JLINKARM_TIF_SWD)  returns 0x00 (0002ms, 0568ms total)
T1270 000:653 JLINK_SetSpeed(5000) (0000ms, 0568ms total)
T1270 000:653 JLINK_GetId() >0x108 TIF>Found SWD-DP with ID 0x2BA01477 >0x0D TIF> >0x21 TIF> >0x0D TIF> >0x28 TIF> >0x0D TIF> >0x28 TIF> >0x0D TIF> >0x21 TIF> >0x0D TIF> >0x28 TIF> >0x0D TIF> >0x21 TIF> >0x0D TIF> >0x21 TIF> >0x0D TIF> >0x21 TIF> >0x0D TIF> >0x21 TIF> >0x0D TIF> >0x28 TIF> >0x0D TIF> >0x28 TIF> >0x0D TIF> >0x21 TIF> >0x0D TIF> >0x28 TIF> >0x0D TIF> >0x28 TIF> >0x0D TIF> >0x28 TIF> >0x0D TIF> >0x21 TIF> >0x0D TIF> >0x21 TIF> >0x0D TIF> >0x28 TIF> >0x0D TIF> >0x21 TIF> >0x0D TIF>
 >0x21 TIF>Found Cortex-M4 r0p1, Little endian. -- CPU_WriteMem(4 bytes @ 0xE0002000) -- CPU_ReadMem(4 bytes @ 0xE000EDF0) -- CPU_WriteMem(4 bytes @ 0xE000EDF0) -- CPU_ReadMem(4 bytes @ 0xE0002000)FPUnit: 6 code (BP) slots and 2 literal slots -- CPU_ReadMem(4 bytes @ 0xE000EDFC) -- CPU_WriteMem(4 bytes @ 0xE000EDFC) -- CPU_ReadMem(4 bytes @ 0xE0001000) -- CPU_WriteMem(4 bytes @ 0xE0001000) -- CPU_ReadMem(4 bytes @ 0xE000ED88) -- CPU_WriteMem(4 bytes @ 0xE000ED88) -- CPU_ReadMem(4 bytes @ 0xE000ED88)
 -- CPU_WriteMem(4 bytes @ 0xE000ED88) -- CPU_ReadMem(4 bytes @ 0xE00FF010)TPIU fitted. -- CPU_ReadMem(4 bytes @ 0xE00FF014)ETM fitted. -- CPU_ReadMem(4 bytes @ 0xE00FF018) >0x0D TIF> >0x21 TIF>  returns 0x2BA01477 (0035ms, 0603ms total)
T1270 000:688 JLINK_GetDLLVersion()  returns 49604 (0000ms, 0603ms total)
T1270 000:688 JLINK_CORE_GetFound()  returns 0xE0000FF (0000ms, 0603ms total)
T1270 000:688 JLINK_GetDebugInfo(0x100) -- Value=0xE00FF003  returns 0x00 (0000ms, 0603ms total)
T1270 000:691 JLINK_ReadMem (0xE00FF000, 0x0020 Bytes, ...) -- CPU is running -- CPU_ReadMem(32 bytes @ 0xE00FF000) - Data: 03 F0 F0 FF 03 20 F0 FF 03 30 F0 FF 03 10 F0 FF ...  returns 0x00 (0001ms, 0604ms total)
T1270 000:692 JLINK_ReadMem (0xE000EFF0, 0x0010 Bytes, ...) -- CPU is running -- CPU_ReadMem(16 bytes @ 0xE000EFF0) - Data: 0D 00 00 00 E0 00 00 00 05 00 00 00 B1 00 00 00  returns 0x00 (0000ms, 0604ms total)
T1270 000:692 JLINK_ReadMem (0xE000EFD0, 0x0020 Bytes, ...) -- CPU is running -- CPU_ReadMem(32 bytes @ 0xE000EFD0) - Data: 04 00 00 00 00 00 00 00 00 00 00 00 00 00 00 00 ...  returns 0x00 (0001ms, 0605ms total)
T1270 000:693 JLINK_ReadMem (0xE0001FF0, 0x0010 Bytes, ...) -- CPU is running -- CPU_ReadMem(16 bytes @ 0xE0001FF0) - Data: 0D 00 00 00 E0 00 00 00 05 00 00 00 B1 00 00 00  returns 0x00 (0001ms, 0606ms total)
T1270 000:694 JLINK_ReadMem (0xE0001FD0, 0x0020 Bytes, ...) -- CPU is running -- CPU_ReadMem(32 bytes @ 0xE0001FD0) - Data: 04 00 00 00 00 00 00 00 00 00 00 00 00 00 00 00 ...  returns 0x00 (0000ms, 0606ms total)
T1270 000:694 JLINK_ReadMem (0xE0002FF0, 0x0010 Bytes, ...) -- CPU is running -- CPU_ReadMem(16 bytes @ 0xE0002FF0) - Data: 0D 00 00 00 E0 00 00 00 05 00 00 00 B1 00 00 00  returns 0x00 (0001ms, 0607ms total)
T1270 000:695 JLINK_ReadMem (0xE0002FD0, 0x0020 Bytes, ...) -- CPU is running -- CPU_ReadMem(32 bytes @ 0xE0002FD0) - Data: 04 00 00 00 00 00 00 00 00 00 00 00 00 00 00 00 ...  returns 0x00 (0000ms, 0607ms total)
T1270 000:695 JLINK_ReadMem (0xE0000FF0, 0x0010 Bytes, ...) -- CPU is running -- CPU_ReadMem(16 bytes @ 0xE0000FF0) - Data: 0D 00 00 00 E0 00 00 00 05 00 00 00 B1 00 00 00  returns 0x00 (0001ms, 0608ms total)
T1270 000:696 JLINK_ReadMem (0xE0000FD0, 0x0020 Bytes, ...) -- CPU is running -- CPU_ReadMem(32 bytes @ 0xE0000FD0) - Data: 04 00 00 00 00 00 00 00 00 00 00 00 00 00 00 00 ...  returns 0x00 (0001ms, 0609ms total)
T1270 000:697 JLINK_ReadMem (0xE0040FF0, 0x0010 Bytes, ...) -- CPU is running -- CPU_ReadMem(16 bytes @ 0xE0040FF0) - Data: 0D 00 00 00 90 00 00 00 05 00 00 00 B1 00 00 00  returns 0x00 (0000ms, 0609ms total)
T1270 000:697 JLINK_ReadMem (0xE0040FD0, 0x0020 Bytes, ...) -- CPU is running -- CPU_ReadMem(32 bytes @ 0xE0040FD0) - Data: 04 00 00 00 00 00 00 00 00 00 00 00 00 00 00 00 ...  returns 0x00 (0001ms, 0610ms total)
T1270 000:698 JLINK_ReadMem (0xE0041FF0, 0x0010 Bytes, ...) -- CPU is running -- CPU_ReadMem(16 bytes @ 0xE0041FF0) - Data: 0D 00 00 00 90 00 00 00 05 00 00 00 B1 00 00 00  returns 0x00 (0000ms, 0610ms total)
T1270 000:698 JLINK_ReadMem (0xE0041FD0, 0x0020 Bytes, ...) -- CPU is running -- CPU_ReadMem(32 bytes @ 0xE0041FD0) - Data: 04 00 00 00 00 00 00 00 00 00 00 00 00 00 00 00 ...  returns 0x00 (0001ms, 0611ms total)
T1270 000:699 JLINK_ReadMemU32(0xE000EF40, 0x0001 Items, ...) -- CPU is running -- CPU_ReadMem(4 bytes @ 0xE000EF40) - Data: 21 00 11 10  returns 0x01 (0000ms, 0611ms total)
T1270 000:699 JLINK_ReadMemU32(0xE000EF44, 0x0001 Items, ...) -- CPU is running -- CPU_ReadMem(4 bytes @ 0xE000EF44) - Data: 11 00 00 11  returns 0x01 (0001ms, 0612ms total)
T1270 000:700 JLINK_ReadMemU32(0xE000ED00, 0x0001 Items, ...) -- CPU is running -- CPU_ReadMem(4 bytes @ 0xE000ED00) - Data: 41 C2 0F 41  returns 0x01 (0000ms, 0612ms total)
T1270 000:700 JLINK_SetResetType(JLINKARM_RESET_TYPE_NORMAL)  returns JLINKARM_RESET_TYPE_NORMAL (0000ms, 0612ms total)
T1270 000:700 JLINK_Reset() -- CPU is running -- CPU_WriteMem(4 bytes @ 0xE000EDF0) -- CPU is running -- CPU_WriteMem(4 bytes @ 0xE000EDFC) >0x35 TIF> -- CPU is running -- CPU_WriteMem(4 bytes @ 0xE000ED0C) -- CPU is running -- CPU_ReadMem(4 bytes @ 0xE000EDF0) -- CPU is running -- CPU_ReadMem(4 bytes @ 0xE000EDF0) -- CPU is running -- CPU_WriteMem(4 bytes @ 0xE000EDF0) -- CPU is running -- CPU_WriteMem(4 bytes @ 0xE000EDFC) -- CPU is running -- CPU_ReadMem(4 bytes @ 0xE000EDF0)
 -- CPU_WriteMem(4 bytes @ 0xE0002000) -- CPU_ReadMem(4 bytes @ 0xE000EDFC) -- CPU_ReadMem(4 bytes @ 0xE0001000) (0018ms, 0630ms total)
T1270 000:718 JLINK_Halt()  returns 0x00 (0000ms, 0630ms total)
T1270 000:718 JLINK_IsHalted()  returns TRUE (0000ms, 0630ms total)
T1270 000:718 JLINK_ReadMemU32(0xE000EDF0, 0x0001 Items, ...) -- CPU_ReadMem(4 bytes @ 0xE000EDF0) - Data: 03 00 03 00  returns 0x01 (0000ms, 0630ms total)
T1270 000:718 JLINK_WriteU32(0xE000EDF0, 0xA05F0003) -- CPU_WriteMem(4 bytes @ 0xE000EDF0)  returns 0x00 (0001ms, 0631ms total)
T1270 000:719 JLINK_WriteU32(0xE000EDFC, 0x01000000) -- CPU_WriteMem(4 bytes @ 0xE000EDFC)  returns 0x00 (0001ms, 0632ms total)
T1270 000:729 JLINK_GetHWStatus(...)  returns 0x00 (0000ms, 0632ms total)
T1270 000:736 JLINK_GetNumBPUnits(Type = 0xFFFFFF00)  returns 0x06 (0000ms, 0633ms total)
T1270 000:736 JLINK_GetNumBPUnits(Type = 0xF0)  returns 0x2000 (0000ms, 0633ms total)
T1270 000:736 JLINK_GetNumWPUnits()  returns 0x04 (0000ms, 0633ms total)
T1270 000:742 JLINK_GetSpeed()  returns 0xFA0 (0000ms, 0633ms total)
T1270 000:746 JLINK_ReadMemU32(0xE000E004, 0x0001 Items, ...) -- CPU_ReadMem(4 bytes @ 0xE000E004) - Data: 01 00 00 00  returns 0x01 (0001ms, 0634ms total)
T1270 000:747 JLINK_ReadMemU32(0xE000E004, 0x0001 Items, ...) -- CPU_ReadMem(4 bytes @ 0xE000E004) - Data: 01 00 00 00  returns 0x01 (0001ms, 0635ms total)
T1270 000:748 JLINK_WriteMem(0xE0001000, 0x001C Bytes, ...) - Data: 01 00 00 00 00 00 00 00 00 00 00 00 00 00 00 00 ... -- CPU_WriteMem(28 bytes @ 0xE0001000)  returns 0x1C (0001ms, 0636ms total)
T1270 000:749 JLINK_ReadMem (0xE0001000, 0x001C Bytes, ...) -- CPU_ReadMem(28 bytes @ 0xE0001000) - Data: 01 00 00 40 00 00 00 00 00 00 00 00 00 00 00 00 ...  returns 0x00 (0001ms, 0637ms total)
T1270 000:750 JLINK_Halt()  returns 0x00 (0000ms, 0637ms total)
T1270 000:750 JLINK_IsHalted()  returns TRUE (0000ms, 0637ms total)
T1270 000:752 JLINK_WriteMem(0x20000000, 0x0178 Bytes, ...) - Data: 00 BE 0A E0 0D 78 2D 06 68 40 08 24 40 00 00 D3 ... -- CPU_WriteMem(376 bytes @ 0x20000000)  returns 0x178 (0002ms, 0639ms total)
T1270 000:755 JLINK_WriteReg(R0, 0x00000000)  returns 0x00 (0000ms, 0640ms total)
T1270 000:755 JLINK_WriteReg(R1, 0x00B71B00)  returns 0x00 (0000ms, 0640ms total)
T1270 000:755 JLINK_WriteReg(R2, 0x00000001)  returns 0x00 (0000ms, 0640ms total)
T1270 000:755 JLINK_WriteReg(R3, 0x00000000)  returns 0x00 (0000ms, 0640ms total)
T1270 000:755 JLINK_WriteReg(R4, 0x00000000)  returns 0x00 (0000ms, 0640ms total)
T1270 000:755 JLINK_WriteReg(R5, 0x00000000)  returns 0x00 (0000ms, 0640ms total)
T1270 000:755 JLINK_WriteReg(R6, 0x00000000)  returns 0x00 (0000ms, 0640ms total)
T1270 000:755 JLINK_WriteReg(R7, 0x00000000)  returns 0x00 (0000ms, 0640ms total)
T1270 000:755 JLINK_WriteReg(R8, 0x00000000)  returns 0x00 (0000ms, 0640ms total)
T1270 000:755 JLINK_WriteReg(R9, 0x20000170)  returns 0x00 (0000ms, 0640ms total)
T1270 000:755 JLINK_WriteReg(R10, 0x00000000)  returns 0x00 (0000ms, 0640ms total)
T1270 000:755 JLINK_WriteReg(R11, 0x00000000)  returns 0x00 (0000ms, 0640ms total)
T1270 000:755 JLINK_WriteReg(R12, 0x00000000)  returns 0x00 (0000ms, 0640ms total)
T1270 000:755 JLINK_WriteReg(R13 (SP), 0x20001000)  returns 0x00 (0000ms, 0640ms total)
T1270 000:755 JLINK_WriteReg(R14, 0x20000001)  returns 0x00 (0000ms, 0640ms total)
T1270 000:755 JLINK_WriteReg(R15 (PC), 0x2000003C)  returns 0x00 (0000ms, 0640ms total)
T1270 000:755 JLINK_WriteReg(XPSR, 0x01000000)  returns 0x00 (0000ms, 0640ms total)
T1270 000:755 JLINK_WriteReg(MSP, 0x20001000)  returns 0x00 (0000ms, 0640ms total)
T1270 000:755 JLINK_WriteReg(PSP, 0x20001000)  returns 0x00 (0000ms, 0640ms total)
T1270 000:755 JLINK_WriteReg(CFBP, 0x00000000)  returns 0x00 (0000ms, 0640ms total)
T1270 000:755 JLINK_SetBPEx(Addr = 0x20000000, Type = 0xFFFFFFF2) -- CPU_ReadMem(4 bytes @ 0x20000000) -- CPU_WriteMem(4 bytes @ 0x20000000) -- CPU_ReadMem(4 bytes @ 0x20000000) -- CPU_WriteMem(4 bytes @ 0x20000000) -- CPU_ReadMem(2 bytes @ 0x20000000)  returns 0x00000001 (0003ms, 0643ms total)
T1270 000:758 JLINK_Go() -- CPU_WriteMem(2 bytes @ 0x20000000) -- CPU_WriteMem(4 bytes @ 0xE0002008) -- CPU_WriteMem(4 bytes @ 0xE000200C) -- CPU_WriteMem(4 bytes @ 0xE0002010) -- CPU_WriteMem(4 bytes @ 0xE0002014) -- CPU_WriteMem(4 bytes @ 0xE0002018) -- CPU_WriteMem(4 bytes @ 0xE000201C) -- CPU_WriteMem(4 bytes @ 0xE0001004) (0003ms, 0646ms total)
T1270 000:761 JLINK_IsHalted() -- CPU_ReadMem(2 bytes @ 0x20000000)  returns TRUE (0002ms, 0648ms total)
T1270 000:763 JLINK_ReadReg(R15 (PC))  returns 0x20000000 (0000ms, 0646ms total)
T1270 000:763 JLINK_ClrBPEx(BPHandle = 0x00000001)  returns 0x00 (0001ms, 0647ms total)
T1270 000:764 JLINK_ReadReg(R0)  returns 0x00000000 (0000ms, 0647ms total)
T1270 000:764 JLINK_WriteReg(R0, 0x00000000)  returns 0x00 (0000ms, 0647ms total)
T1270 000:764 JLINK_WriteReg(R1, 0x00008000)  returns 0x00 (0000ms, 0647ms total)
T1270 000:764 JLINK_WriteReg(R2, 0x000000FF)  returns 0x00 (0000ms, 0647ms total)
T1270 000:764 JLINK_WriteReg(R3, 0x00000000)  returns 0x00 (0000ms, 0647ms total)
T1270 000:764 JLINK_WriteReg(R4, 0x00000000)  returns 0x00 (0000ms, 0647ms total)
T1270 000:764 JLINK_WriteReg(R5, 0x00000000)  returns 0x00 (0000ms, 0647ms total)
T1270 000:764 JLINK_WriteReg(R6, 0x00000000)  returns 0x00 (0000ms, 0647ms total)
T1270 000:764 JLINK_WriteReg(R7, 0x00000000)  returns 0x00 (0000ms, 0647ms total)
T1270 000:764 JLINK_WriteReg(R8, 0x00000000)  returns 0x00 (0000ms, 0647ms total)
T1270 000:764 JLINK_WriteReg(R9, 0x20000170)  returns 0x00 (0000ms, 0647ms total)
T1270 000:764 JLINK_WriteReg(R10, 0x00000000)  returns 0x00 (0000ms, 0647ms total)
T1270 000:764 JLINK_WriteReg(R11, 0x00000000)  returns 0x00 (0000ms, 0647ms total)
T1270 000:764 JLINK_WriteReg(R12, 0x00000000)  returns 0x00 (0000ms, 0647ms total)
T1270 000:764 JLINK_WriteReg(R13 (SP), 0x20001000)  returns 0x00 (0000ms, 0647ms total)
T1270 000:764 JLINK_WriteReg(R14, 0x20000001)  returns 0x00 (0000ms, 0647ms total)
T1270 000:764 JLINK_WriteReg(R15 (PC), 0x20000020)  returns 0x00 (0001ms, 0648ms total)
T1270 000:765 JLINK_WriteReg(XPSR, 0x01000000)  returns 0x00 (0000ms, 0648ms total)
T1270 000:765 JLINK_WriteReg(MSP, 0x20001000)  returns 0x00 (0000ms, 0648ms total)
T1270 000:765 JLINK_WriteReg(PSP, 0x20001000)  returns 0x00 (0000ms, 0648ms total)
T1270 000:765 JLINK_WriteReg(CFBP, 0x00000000)  returns 0x00 (0000ms, 0648ms total)
T1270 000:765 JLINK_SetBPEx(Addr = 0x20000000, Type = 0xFFFFFFF2)  returns 0x00000002 (0000ms, 0648ms total)
T1270 000:765 JLINK_Go() (0001ms, 0649ms total)
T1270 000:766 JLINK_IsHalted() -- CPU_ReadMem(2 bytes @ 0x20000000)  returns TRUE (0002ms, 0651ms total)
T1270 000:768 JLINK_ReadReg(R15 (PC))  returns 0x20000000 (0000ms, 0649ms total)
T1270 000:768 JLINK_ClrBPEx(BPHandle = 0x00000002)  returns 0x00 (0000ms, 0649ms total)
T1270 000:768 JLINK_ReadReg(R0)  returns 0x00000001 (0000ms, 0649ms total)
T1270 000:768 JLINK_WriteReg(R0, 0x00000000)  returns 0x00 (0000ms, 0649ms total)
T1270 000:768 JLINK_WriteReg(R1, 0x00008000)  returns 0x00 (0000ms, 0649ms total)
T1270 000:768 JLINK_WriteReg(R2, 0x000000FF)  returns 0x00 (0000ms, 0649ms total)
T1270 000:768 JLINK_WriteReg(R3, 0x00000000)  returns 0x00 (0000ms, 0649ms total)
T1270 000:768 JLINK_WriteReg(R4, 0x00000000)  returns 0x00 (0000ms, 0649ms total)
T1270 000:768 JLINK_WriteReg(R5, 0x00000000)  returns 0x00 (0000ms, 0649ms total)
T1270 000:768 JLINK_WriteReg(R6, 0x00000000)  returns 0x00 (0000ms, 0649ms total)
T1270 000:768 JLINK_WriteReg(R7, 0x00000000)  returns 0x00 (0001ms, 0650ms total)
T1270 000:769 JLINK_WriteReg(R8, 0x00000000)  returns 0x00 (0000ms, 0650ms total)
T1270 000:769 JLINK_WriteReg(R9, 0x20000170)  returns 0x00 (0000ms, 0650ms total)
T1270 000:769 JLINK_WriteReg(R10, 0x00000000)  returns 0x00 (0000ms, 0650ms total)
T1270 000:769 JLINK_WriteReg(R11, 0x00000000)  returns 0x00 (0000ms, 0650ms total)
T1270 000:769 JLINK_WriteReg(R12, 0x00000000)  returns 0x00 (0000ms, 0650ms total)
T1270 000:769 JLINK_WriteReg(R13 (SP), 0x20001000)  returns 0x00 (0000ms, 0650ms total)
T1270 000:769 JLINK_WriteReg(R14, 0x20000001)  returns 0x00 (0000ms, 0650ms total)
T1270 000:769 JLINK_WriteReg(R15 (PC), 0x200000A2)  returns 0x00 (0000ms, 0650ms total)
T1270 000:769 JLINK_WriteReg(XPSR, 0x01000000)  returns 0x00 (0000ms, 0650ms total)
T1270 000:769 JLINK_WriteReg(MSP, 0x20001000)  returns 0x00 (0000ms, 0650ms total)
T1270 000:769 JLINK_WriteReg(PSP, 0x20001000)  returns 0x00 (0000ms, 0650ms total)
T1270 000:769 JLINK_WriteReg(CFBP, 0x00000000)  returns 0x00 (0000ms, 0650ms total)
T1270 000:769 JLINK_SetBPEx(Addr = 0x20000000, Type = 0xFFFFFFF2)  returns 0x00000003 (0000ms, 0650ms total)
T1270 000:769 JLINK_Go() (0001ms, 0651ms total)
T1270 000:770 JLINK_IsHalted()  returns FALSE (0000ms, 0651ms total)
T1270 000:798 JLINK_IsHalted()  returns FALSE (0000ms, 0651ms total)
T1270 000:799 JLINK_IsHalted()  returns FALSE (0000ms, 0651ms total)
T1270 000:800 JLINK_IsHalted()  returns FALSE (0000ms, 0651ms total)
T1270 000:801 JLINK_IsHalted()  returns FALSE (0000ms, 0651ms total)
T1270 000:806 JLINK_IsHalted()  returns FALSE (0000ms, 0651ms total)
T1270 000:807 JLINK_IsHalted()  returns FALSE (0000ms, 0651ms total)
T1270 000:808 JLINK_IsHalted()  returns FALSE (0000ms, 0651ms total)
T1270 000:809 JLINK_IsHalted()  returns FALSE (0000ms, 0651ms total)
T1270 000:810 JLINK_IsHalted()  returns FALSE (0000ms, 0651ms total)
T1270 000:811 JLINK_IsHalted()  returns FALSE (0000ms, 0651ms total)
T1270 000:812 JLINK_IsHalted()  returns FALSE (0000ms, 0651ms total)
T1270 000:813 JLINK_IsHalted()  returns FALSE (0000ms, 0651ms total)
T1270 000:814 JLINK_IsHalted()  returns FALSE (0000ms, 0651ms total)
T1270 000:815 JLINK_IsHalted()  returns FALSE (0000ms, 0651ms total)
T1270 000:816 JLINK_IsHalted()  returns FALSE (0000ms, 0651ms total)
T1270 000:817 JLINK_IsHalted()  returns FALSE (0000ms, 0651ms total)
T1270 000:818 JLINK_IsHalted()  returns FALSE (0000ms, 0651ms total)
T1270 000:819 JLINK_IsHalted()  returns FALSE (0000ms, 0651ms total)
T1270 000:820 JLINK_IsHalted()  returns FALSE (0000ms, 0651ms total)
T1270 000:821 JLINK_IsHalted()  returns FALSE (0000ms, 0651ms total)
T1270 000:822 JLINK_IsHalted()  returns FALSE (0000ms, 0651ms total)
T1270 000:825 JLINK_IsHalted()  returns FALSE (0000ms, 0651ms total)
T1270 000:826 JLINK_IsHalted()  returns FALSE (0000ms, 0651ms total)
T1270 000:827 JLINK_IsHalted()  returns FALSE (0000ms, 0651ms total)
T1270 000:828 JLINK_IsHalted()  returns FALSE (0000ms, 0651ms total)
T1270 000:829 JLINK_IsHalted()  returns FALSE (0000ms, 0651ms total)
T1270 000:830 JLINK_IsHalted()  returns FALSE (0000ms, 0651ms total)
T1270 000:831 JLINK_IsHalted()  returns FALSE (0000ms, 0651ms total)
T1270 000:832 JLINK_IsHalted()  returns FALSE (0000ms, 0651ms total)
T1270 000:833 JLINK_IsHalted()  returns FALSE (0000ms, 0651ms total)
T1270 000:834 JLINK_IsHalted()  returns FALSE (0000ms, 0651ms total)
T1270 000:835 JLINK_IsHalted()  returns FALSE (0000ms, 0651ms total)
T1270 000:836 JLINK_IsHalted()  returns FALSE (0000ms, 0651ms total)
T1270 000:837 JLINK_IsHalted()  returns FALSE (0000ms, 0651ms total)
T1270 000:840 JLINK_IsHalted()  returns FALSE (0000ms, 0651ms total)
T1270 000:841 JLINK_IsHalted()  returns FALSE (0000ms, 0651ms total)
T1270 000:842 JLINK_IsHalted()  returns FALSE (0000ms, 0651ms total)
T1270 000:843 JLINK_IsHalted()  returns FALSE (0000ms, 0651ms total)
T1270 000:844 JLINK_IsHalted()  returns FALSE (0000ms, 0651ms total)
T1270 000:845 JLINK_IsHalted()  returns FALSE (0000ms, 0651ms total)
T1270 000:846 JLINK_IsHalted()  returns FALSE (0000ms, 0651ms total)
T1270 000:847 JLINK_IsHalted()  returns FALSE (0000ms, 0651ms total)
T1270 000:848 JLINK_IsHalted()  returns FALSE (0000ms, 0651ms total)
T1270 000:849 JLINK_IsHalted()  returns FALSE (0000ms, 0651ms total)
T1270 000:850 JLINK_IsHalted()  returns FALSE (0000ms, 0651ms total)
T1270 000:851 JLINK_IsHalted()  returns FALSE (0000ms, 0651ms total)
T1270 000:852 JLINK_IsHalted()  returns FALSE (0000ms, 0651ms total)
T1270 000:853 JLINK_IsHalted()  returns FALSE (0000ms, 0651ms total)
T1270 000:854 JLINK_IsHalted()  returns FALSE (0000ms, 0651ms total)
T1270 000:855 JLINK_IsHalted()  returns FALSE (0000ms, 0651ms total)
T1270 000:856 JLINK_IsHalted()  returns FALSE (0000ms, 0651ms total)
T1270 000:857 JLINK_IsHalted()  returns FALSE (0000ms, 0651ms total)
T1270 000:858 JLINK_IsHalted()  returns FALSE (0000ms, 0651ms total)
T1270 000:859 JLINK_IsHalted()  returns FALSE (0000ms, 0651ms total)
T1270 000:860 JLINK_IsHalted()  returns FALSE (0000ms, 0651ms total)
T1270 000:861 JLINK_IsHalted()  returns FALSE (0000ms, 0651ms total)
T1270 000:862 JLINK_IsHalted()  returns FALSE (0000ms, 0651ms total)
T1270 000:863 JLINK_IsHalted()  returns FALSE (0000ms, 0651ms total)
T1270 000:864 JLINK_IsHalted()  returns FALSE (0000ms, 0651ms total)
T1270 000:865 JLINK_IsHalted()  returns FALSE (0000ms, 0651ms total)
T1270 000:866 JLINK_IsHalted()  returns FALSE (0000ms, 0651ms total)
T1270 000:867 JLINK_IsHalted()  returns FALSE (0000ms, 0651ms total)
T1270 000:868 JLINK_IsHalted()  returns FALSE (0000ms, 0651ms total)
T1270 000:869 JLINK_IsHalted()  returns FALSE (0000ms, 0651ms total)
T1270 000:870 JLINK_IsHalted()  returns FALSE (0000ms, 0651ms total)
T1270 000:871 JLINK_IsHalted() -- CPU_ReadMem(2 bytes @ 0x20000000)  returns TRUE (0003ms, 0654ms total)
T1270 000:874 JLINK_ReadReg(R15 (PC))  returns 0x20000000 (0000ms, 0651ms total)
T1270 000:874 JLINK_ClrBPEx(BPHandle = 0x00000003)  returns 0x00 (0000ms, 0651ms total)
T1270 000:874 JLINK_ReadReg(R0)  returns 0x00000000 (0000ms, 0651ms total)
T1270 000:875 JLINK_WriteReg(R0, 0x00008000)  returns 0x00 (0000ms, 0651ms total)
T1270 000:875 JLINK_WriteReg(R1, 0x00008000)  returns 0x00 (0000ms, 0651ms total)
T1270 000:875 JLINK_WriteReg(R2, 0x000000FF)  returns 0x00 (0000ms, 0651ms total)
T1270 000:875 JLINK_WriteReg(R3, 0x00000000)  returns 0x00 (0000ms, 0651ms total)
T1270 000:875 JLINK_WriteReg(R4, 0x00000000)  returns 0x00 (0000ms, 0651ms total)
T1270 000:875 JLINK_WriteReg(R5, 0x00000000)  returns 0x00 (0000ms, 0651ms total)
T1270 000:875 JLINK_WriteReg(R6, 0x00000000)  returns 0x00 (0000ms, 0651ms total)
T1270 000:875 JLINK_WriteReg(R7, 0x00000000)  returns 0x00 (0000ms, 0651ms total)
T1270 000:875 JLINK_WriteReg(R8, 0x00000000)  returns 0x00 (0000ms, 0651ms total)
T1270 000:875 JLINK_WriteReg(R9, 0x20000170)  returns 0x00 (0000ms, 0651ms total)
T1270 000:875 JLINK_WriteReg(R10, 0x00000000)  returns 0x00 (0000ms, 0651ms total)
T1270 000:875 JLINK_WriteReg(R11, 0x00000000)  returns 0x00 (0000ms, 0651ms total)
T1270 000:875 JLINK_WriteReg(R12, 0x00000000)  returns 0x00 (0000ms, 0651ms total)
T1270 000:876 JLINK_WriteReg(R13 (SP), 0x20001000)  returns 0x00 (0000ms, 0652ms total)
T1270 000:876 JLINK_WriteReg(R14, 0x20000001)  returns 0x00 (0000ms, 0652ms total)
T1270 000:876 JLINK_WriteReg(R15 (PC), 0x20000020)  returns 0x00 (0000ms, 0652ms total)
T1270 000:876 JLINK_WriteReg(XPSR, 0x01000000)  returns 0x00 (0000ms, 0652ms total)
T1270 000:876 JLINK_WriteReg(MSP, 0x20001000)  returns 0x00 (0000ms, 0652ms total)
T1270 000:876 JLINK_WriteReg(PSP, 0x20001000)  returns 0x00 (0000ms, 0652ms total)
T1270 000:876 JLINK_WriteReg(CFBP, 0x00000000)  returns 0x00 (0000ms, 0652ms total)
T1270 000:876 JLINK_SetBPEx(Addr = 0x20000000, Type = 0xFFFFFFF2)  returns 0x00000004 (0000ms, 0652ms total)
T1270 000:876 JLINK_Go() (0002ms, 0654ms total)
T1270 000:878 JLINK_IsHalted() -- CPU_ReadMem(2 bytes @ 0x20000000)  returns TRUE (0003ms, 0657ms total)
T1270 000:881 JLINK_ReadReg(R15 (PC))  returns 0x20000000 (0000ms, 0654ms total)
T1270 000:881 JLINK_ClrBPEx(BPHandle = 0x00000004)  returns 0x00 (0000ms, 0654ms total)
T1270 000:881 JLINK_ReadReg(R0)  returns 0x00000001 (0000ms, 0654ms total)
T1270 000:881 JLINK_WriteReg(R0, 0x00008000)  returns 0x00 (0000ms, 0654ms total)
T1270 000:881 JLINK_WriteReg(R1, 0x00008000)  returns 0x00 (0000ms, 0654ms total)
T1270 000:881 JLINK_WriteReg(R2, 0x000000FF)  returns 0x00 (0000ms, 0654ms total)
T1270 000:881 JLINK_WriteReg(R3, 0x00000000)  returns 0x00 (0000ms, 0654ms total)
T1270 000:881 JLINK_WriteReg(R4, 0x00000000)  returns 0x00 (0000ms, 0654ms total)
T1270 000:881 JLINK_WriteReg(R5, 0x00000000)  returns 0x00 (0000ms, 0654ms total)
T1270 000:881 JLINK_WriteReg(R6, 0x00000000)  returns 0x00 (0000ms, 0654ms total)
T1270 000:881 JLINK_WriteReg(R7, 0x00000000)  returns 0x00 (0000ms, 0654ms total)
T1270 000:881 JLINK_WriteReg(R8, 0x00000000)  returns 0x00 (0000ms, 0654ms total)
T1270 000:882 JLINK_WriteReg(R9, 0x20000170)  returns 0x00 (0000ms, 0655ms total)
T1270 000:882 JLINK_WriteReg(R10, 0x00000000)  returns 0x00 (0000ms, 0655ms total)
T1270 000:882 JLINK_WriteReg(R11, 0x00000000)  returns 0x00 (0000ms, 0655ms total)
T1270 000:882 JLINK_WriteReg(R12, 0x00000000)  returns 0x00 (0000ms, 0655ms total)
T1270 000:882 JLINK_WriteReg(R13 (SP), 0x20001000)  returns 0x00 (0000ms, 0655ms total)
T1270 000:882 JLINK_WriteReg(R14, 0x20000001)  returns 0x00 (0000ms, 0655ms total)
T1270 000:882 JLINK_WriteReg(R15 (PC), 0x200000A2)  returns 0x00 (0000ms, 0655ms total)
T1270 000:882 JLINK_WriteReg(XPSR, 0x01000000)  returns 0x00 (0000ms, 0655ms total)
T1270 000:882 JLINK_WriteReg(MSP, 0x20001000)  returns 0x00 (0000ms, 0655ms total)
T1270 000:882 JLINK_WriteReg(PSP, 0x20001000)  returns 0x00 (0000ms, 0655ms total)
T1270 000:882 JLINK_WriteReg(CFBP, 0x00000000)  returns 0x00 (0000ms, 0655ms total)
T1270 000:882 JLINK_SetBPEx(Addr = 0x20000000, Type = 0xFFFFFFF2)  returns 0x00000005 (0000ms, 0655ms total)
T1270 000:882 JLINK_Go() (0002ms, 0657ms total)
T1270 000:884 JLINK_IsHalted()  returns FALSE (0000ms, 0657ms total)
T1270 000:889 JLINK_IsHalted()  returns FALSE (0000ms, 0657ms total)
T1270 000:890 JLINK_IsHalted()  returns FALSE (0000ms, 0657ms total)
T1270 000:891 JLINK_IsHalted()  returns FALSE (0000ms, 0657ms total)
T1270 000:892 JLINK_IsHalted()  returns FALSE (0000ms, 0657ms total)
T1270 000:894 JLINK_IsHalted()  returns FALSE (0000ms, 0657ms total)
T1270 000:895 JLINK_IsHalted()  returns FALSE (0000ms, 0657ms total)
T1270 000:896 JLINK_IsHalted()  returns FALSE (0000ms, 0657ms total)
T1270 000:897 JLINK_IsHalted()  returns FALSE (0000ms, 0657ms total)
T1270 000:898 JLINK_IsHalted()  returns FALSE (0000ms, 0657ms total)
T1270 000:899 JLINK_IsHalted()  returns FALSE (0000ms, 0657ms total)
T1270 000:900 JLINK_IsHalted()  returns FALSE (0000ms, 0657ms total)
T1270 000:901 JLINK_IsHalted()  returns FALSE (0000ms, 0657ms total)
T1270 000:902 JLINK_IsHalted()  returns FALSE (0000ms, 0657ms total)
T1270 000:903 JLINK_IsHalted()  returns FALSE (0000ms, 0657ms total)
T1270 000:904 JLINK_IsHalted()  returns FALSE (0000ms, 0657ms total)
T1270 000:905 JLINK_IsHalted()  returns FALSE (0000ms, 0657ms total)
T1270 000:906 JLINK_IsHalted()  returns FALSE (0000ms, 0657ms total)
T1270 000:907 JLINK_IsHalted()  returns FALSE (0000ms, 0657ms total)
T1270 000:908 JLINK_IsHalted()  returns FALSE (0000ms, 0657ms total)
T1270 000:909 JLINK_IsHalted()  returns FALSE (0000ms, 0657ms total)
T1270 000:910 JLINK_IsHalted()  returns FALSE (0000ms, 0657ms total)
T1270 000:911 JLINK_IsHalted()  returns FALSE (0000ms, 0657ms total)
T1270 000:912 JLINK_IsHalted()  returns FALSE (0000ms, 0657ms total)
T1270 000:913 JLINK_IsHalted()  returns FALSE (0000ms, 0657ms total)
T1270 000:914 JLINK_IsHalted()  returns FALSE (0000ms, 0657ms total)
T1270 000:915 JLINK_IsHalted()  returns FALSE (0000ms, 0657ms total)
T1270 000:916 JLINK_IsHalted()  returns FALSE (0000ms, 0657ms total)
T1270 000:917 JLINK_IsHalted()  returns FALSE (0000ms, 0657ms total)
T1270 000:918 JLINK_IsHalted()  returns FALSE (0000ms, 0657ms total)
T1270 000:919 JLINK_IsHalted()  returns FALSE (0000ms, 0657ms total)
T1270 000:920 JLINK_IsHalted()  returns FALSE (0000ms, 0657ms total)
T1270 000:921 JLINK_IsHalted()  returns FALSE (0000ms, 0657ms total)
T1270 000:922 JLINK_IsHalted()  returns FALSE (0000ms, 0657ms total)
T1270 000:923 JLINK_IsHalted()  returns FALSE (0000ms, 0657ms total)
T1270 000:924 JLINK_IsHalted()  returns FALSE (0000ms, 0657ms total)
T1270 000:925 JLINK_IsHalted()  returns FALSE (0000ms, 0657ms total)
T1270 000:926 JLINK_IsHalted()  returns FALSE (0000ms, 0657ms total)
T1270 000:930 JLINK_IsHalted()  returns FALSE (0000ms, 0657ms total)
T1270 000:931 JLINK_IsHalted()  returns FALSE (0001ms, 0658ms total)
T1270 000:933 JLINK_IsHalted()  returns FALSE (0000ms, 0657ms total)
T1270 000:934 JLINK_IsHalted()  returns FALSE (0000ms, 0657ms total)
T1270 000:935 JLINK_IsHalted()  returns FALSE (0000ms, 0657ms total)
T1270 000:936 JLINK_IsHalted()  returns FALSE (0001ms, 0658ms total)
T1270 000:938 JLINK_IsHalted()  returns FALSE (0000ms, 0657ms total)
T1270 000:939 JLINK_IsHalted()  returns FALSE (0000ms, 0657ms total)
T1270 000:940 JLINK_IsHalted()  returns FALSE (0000ms, 0657ms total)
T1270 000:941 JLINK_IsHalted()  returns FALSE (0001ms, 0658ms total)
T1270 000:943 JLINK_IsHalted()  returns FALSE (0000ms, 0657ms total)
T1270 000:944 JLINK_IsHalted()  returns FALSE (0000ms, 0657ms total)
T1270 000:945 JLINK_IsHalted()  returns FALSE (0000ms, 0657ms total)
T1270 000:946 JLINK_IsHalted()  returns FALSE (0000ms, 0657ms total)
T1270 000:947 JLINK_IsHalted()  returns FALSE (0000ms, 0657ms total)
T1270 000:948 JLINK_IsHalted()  returns FALSE (0000ms, 0657ms total)
T1270 000:949 JLINK_IsHalted()  returns FALSE (0000ms, 0657ms total)
T1270 000:950 JLINK_IsHalted()  returns FALSE (0000ms, 0657ms total)
T1270 000:951 JLINK_IsHalted()  returns FALSE (0000ms, 0657ms total)
T1270 000:952 JLINK_IsHalted()  returns FALSE (0000ms, 0657ms total)
T1270 000:953 JLINK_IsHalted()  returns FALSE (0000ms, 0657ms total)
T1270 000:954 JLINK_IsHalted()  returns FALSE (0000ms, 0657ms total)
T1270 000:955 JLINK_IsHalted()  returns FALSE (0000ms, 0657ms total)
T1270 000:956 JLINK_IsHalted()  returns FALSE (0000ms, 0657ms total)
T1270 000:957 JLINK_IsHalted()  returns FALSE (0000ms, 0657ms total)
T1270 000:961 JLINK_IsHalted()  returns FALSE (0000ms, 0657ms total)
T1270 000:962 JLINK_IsHalted()  returns FALSE (0000ms, 0657ms total)
T1270 000:963 JLINK_IsHalted()  returns FALSE (0000ms, 0657ms total)
T1270 000:964 JLINK_IsHalted()  returns FALSE (0000ms, 0657ms total)
T1270 000:965 JLINK_IsHalted()  returns FALSE (0000ms, 0657ms total)
T1270 000:966 JLINK_IsHalted()  returns FALSE (0000ms, 0657ms total)
T1270 000:967 JLINK_IsHalted()  returns FALSE (0000ms, 0657ms total)
T1270 000:968 JLINK_IsHalted()  returns FALSE (0000ms, 0657ms total)
T1270 000:969 JLINK_IsHalted()  returns FALSE (0000ms, 0657ms total)
T1270 000:970 JLINK_IsHalted()  returns FALSE (0000ms, 0657ms total)
T1270 000:971 JLINK_IsHalted()  returns FALSE (0000ms, 0657ms total)
T1270 000:972 JLINK_IsHalted()  returns FALSE (0000ms, 0657ms total)
T1270 000:973 JLINK_IsHalted()  returns FALSE (0001ms, 0658ms total)
T1270 000:974 JLINK_ReadReg(R0) -- CPU is running
  ***** Error: Can not read register 0 (R0) while CPU is running  returns 0x00000000 (0001ms, 0658ms total)
T1270 000:978 JLINK_ReadReg(R1) -- CPU is running
  ***** Error: Can not read register 1 (R1) while CPU is running  returns 0x00000000 (0001ms, 0659ms total)
T1270 000:983 JLINK_ReadReg(R2) -- CPU is running
  ***** Error: Can not read register 2 (R2) while CPU is running  returns 0x00000000 (0001ms, 0660ms total)
T1270 000:988 JLINK_ReadReg(R3) -- CPU_ReadMem(2 bytes @ 0x20000000)  returns 0x00000000 (0003ms, 0663ms total)
T1270 000:991 JLINK_ReadReg(R4)  returns 0x00000000 (0000ms, 0663ms total)
T1270 000:991 JLINK_ReadReg(R5)  returns 0x00000000 (0000ms, 0663ms total)
T1270 000:991 JLINK_ReadReg(R6)  returns 0x00000000 (0000ms, 0663ms total)
T1270 000:991 JLINK_ReadReg(R7)  returns 0x00000000 (0000ms, 0663ms total)
T1270 000:991 JLINK_ReadReg(R8)  returns 0x00000000 (0000ms, 0663ms total)
T1270 000:991 JLINK_ReadReg(R9)  returns 0x20000170 (0000ms, 0663ms total)
T1270 000:991 JLINK_ReadReg(R10)  returns 0x00000000 (0000ms, 0663ms total)
T1270 000:991 JLINK_ReadReg(R11)  returns 0x00000000 (0000ms, 0663ms total)
T1270 000:991 JLINK_ReadReg(R12)  returns 0x00000002 (0001ms, 0664ms total)
T1270 000:992 JLINK_ReadReg(R13 (SP))  returns 0x20001000 (0000ms, 0664ms total)
T1270 000:992 JLINK_ReadReg(R14)  returns 0x03003745 (0000ms, 0664ms total)
T1270 000:992 JLINK_ReadReg(R15 (PC))  returns 0x20000000 (0000ms, 0664ms total)
T1270 000:992 JLINK_ReadReg(XPSR)  returns 0x61000000 (0000ms, 0664ms total)
T1270 000:992 JLINK_ReadReg(MSP)  returns 0x20001000 (0000ms, 0664ms total)
T1270 000:992 JLINK_ReadReg(PSP)  returns 0x20001000 (0000ms, 0664ms total)
T1270 000:992 JLINK_ReadReg(CFBP)  returns 0x00000000 (0000ms, 0664ms total)
T1270 000:992 JLINK_ReadReg(FPSCR)  returns 0x00000000 (0004ms, 0668ms total)
T1270 000:996 JLINK_ReadReg(FPS0)  returns 0x00000000 (0000ms, 0668ms total)
T1270 000:996 JLINK_ReadReg(FPS1)  returns 0x00000000 (0000ms, 0668ms total)
T1270 000:996 JLINK_ReadReg(FPS2)  returns 0x00000000 (0000ms, 0668ms total)
T1270 000:996 JLINK_ReadReg(FPS3)  returns 0x00000000 (0000ms, 0668ms total)
T1270 000:996 JLINK_ReadReg(FPS4)  returns 0x00000000 (0000ms, 0668ms total)
T1270 000:996 JLINK_ReadReg(FPS5)  returns 0x00000000 (0000ms, 0668ms total)
T1270 000:996 JLINK_ReadReg(FPS6)  returns 0x00000000 (0000ms, 0668ms total)
T1270 000:996 JLINK_ReadReg(FPS7)  returns 0x00000000 (0000ms, 0668ms total)
T1270 000:996 JLINK_ReadReg(FPS8)  returns 0x00000000 (0000ms, 0668ms total)
T1270 000:996 JLINK_ReadReg(FPS9)  returns 0x00000000 (0000ms, 0668ms total)
T1270 000:996 JLINK_ReadReg(FPS10)  returns 0x00000000 (0000ms, 0668ms total)
T1270 000:996 JLINK_ReadReg(FPS11)  returns 0x00000000 (0001ms, 0669ms total)
T1270 000:997 JLINK_ReadReg(FPS12)  returns 0x00000000 (0000ms, 0669ms total)
T1270 000:997 JLINK_ReadReg(FPS13)  returns 0x00000000 (0000ms, 0669ms total)
T1270 000:997 JLINK_ReadReg(FPS14)  returns 0x00000000 (0000ms, 0669ms total)
T1270 000:997 JLINK_ReadReg(FPS15)  returns 0x00000000 (0000ms, 0669ms total)
T1270 000:997 JLINK_ReadReg(FPS16)  returns 0x00000000 (0000ms, 0669ms total)
T1270 000:997 JLINK_ReadReg(FPS17)  returns 0x00000000 (0000ms, 0669ms total)
T1270 000:997 JLINK_ReadReg(FPS18)  returns 0x00000000 (0000ms, 0669ms total)
T1270 000:997 JLINK_ReadReg(FPS19)  returns 0x00000000 (0000ms, 0669ms total)
T1270 000:997 JLINK_ReadReg(FPS20)  returns 0x00000000 (0000ms, 0669ms total)
T1270 000:997 JLINK_ReadReg(FPS21)  returns 0x00000000 (0000ms, 0669ms total)
T1270 000:997 JLINK_ReadReg(FPS22)  returns 0x00000000 (0000ms, 0669ms total)
T1270 000:997 JLINK_ReadReg(FPS23)  returns 0x00000000 (0000ms, 0669ms total)
T1270 000:997 JLINK_ReadReg(FPS24)  returns 0x00000000 (0000ms, 0669ms total)
T1270 000:997 JLINK_ReadReg(FPS25)  returns 0x00000000 (0000ms, 0669ms total)
T1270 000:997 JLINK_ReadReg(FPS26)  returns 0x00000000 (0000ms, 0669ms total)
T1270 000:997 JLINK_ReadReg(FPS27)  returns 0x00000000 (0000ms, 0669ms total)
T1270 000:997 JLINK_ReadReg(FPS28)  returns 0x00000000 (0001ms, 0670ms total)
T1270 000:998 JLINK_ReadReg(FPS29)  returns 0x00000000 (0000ms, 0670ms total)
T1270 000:998 JLINK_ReadReg(FPS30)  returns 0x00000000 (0000ms, 0670ms total)
T1270 000:998 JLINK_ReadReg(FPS31)  returns 0x00000000 (0000ms, 0670ms total)
T1270 001:021 JLINK_IsHalted()  returns TRUE (0000ms, 0670ms total)
T1270 001:021 JLINK_ReadReg(R15 (PC))  returns 0x20000000 (0000ms, 0670ms total)
T1270 001:021 JLINK_ClrBPEx(BPHandle = 0x00000005)  returns 0x00 (0000ms, 0670ms total)
T1270 001:021 JLINK_ReadReg(R0)  returns 0x00000000 (0001ms, 0671ms total)
T1270 001:022 JLINK_WriteReg(R0, 0x00000001)  returns 0x00 (0000ms, 0671ms total)
T1270 001:022 JLINK_WriteReg(R1, 0x00000000)  returns 0x00 (0000ms, 0671ms total)
T1270 001:022 JLINK_WriteReg(R2, 0x00000000)  returns 0x00 (0000ms, 0671ms total)
T1270 001:022 JLINK_WriteReg(R3, 0x00000000)  returns 0x00 (0000ms, 0671ms total)
T1270 001:022 JLINK_WriteReg(R4, 0x00000000)  returns 0x00 (0000ms, 0671ms total)
T1270 001:022 JLINK_WriteReg(R5, 0x00000000)  returns 0x00 (0000ms, 0671ms total)
T1270 001:022 JLINK_WriteReg(R6, 0x00000000)  returns 0x00 (0000ms, 0671ms total)
T1270 001:022 JLINK_WriteReg(R7, 0x00000000)  returns 0x00 (0001ms, 0672ms total)
T1270 001:023 JLINK_WriteReg(R8, 0x00000000)  returns 0x00 (0000ms, 0672ms total)
T1270 001:023 JLINK_WriteReg(R9, 0x20000170)  returns 0x00 (0000ms, 0672ms total)
T1270 001:023 JLINK_WriteReg(R10, 0x00000000)  returns 0x00 (0000ms, 0672ms total)
T1270 001:023 JLINK_WriteReg(R11, 0x00000000)  returns 0x00 (0000ms, 0672ms total)
T1270 001:023 JLINK_WriteReg(R12, 0x00000002)  returns 0x00 (0000ms, 0672ms total)
T1270 001:023 JLINK_WriteReg(R13 (SP), 0x20001000)  returns 0x00 (0000ms, 0672ms total)
T1270 001:023 JLINK_WriteReg(R14, 0x20000001)  returns 0x00 (0000ms, 0672ms total)
T1270 001:023 JLINK_WriteReg(R15 (PC), 0x2000005A)  returns 0x00 (0000ms, 0672ms total)
T1270 001:023 JLINK_WriteReg(XPSR, 0x01000000)  returns 0x00 (0000ms, 0672ms total)
T1270 001:023 JLINK_WriteReg(MSP, 0x20001000)  returns 0x00 (0000ms, 0672ms total)
T1270 001:023 JLINK_WriteReg(PSP, 0x20001000)  returns 0x00 (0000ms, 0672ms total)
T1270 001:023 JLINK_WriteReg(CFBP, 0x00000000)  returns 0x00 (0000ms, 0672ms total)
T1270 001:023 JLINK_SetBPEx(Addr = 0x20000000, Type = 0xFFFFFFF2)  returns 0x00000006 (0000ms, 0672ms total)
T1270 001:023 JLINK_Go() (0002ms, 0674ms total)
T1270 001:025 JLINK_IsHalted() -- CPU_ReadMem(2 bytes @ 0x20000000)  returns TRUE (0003ms, 0677ms total)
T1270 001:029 JLINK_ReadReg(R15 (PC))  returns 0x20000000 (0000ms, 0674ms total)
T1270 001:029 JLINK_ClrBPEx(BPHandle = 0x00000006)  returns 0x00 (0000ms, 0674ms total)
T1270 001:029 JLINK_ReadReg(R0)  returns 0x00000000 (0000ms, 0674ms total)
T1270 001:090 JLINK_WriteMem(0x20000000, 0x0178 Bytes, ...) - Data: 00 BE 0A E0 0D 78 2D 06 68 40 08 24 40 00 00 D3 ... -- CPU_WriteMem(376 bytes @ 0x20000000)  returns 0x178 (0002ms, 0676ms total)
T1270 001:092 JLINK_WriteReg(R0, 0x00000000)  returns 0x00 (0000ms, 0676ms total)
T1270 001:092 JLINK_WriteReg(R1, 0x00B71B00)  returns 0x00 (0000ms, 0676ms total)
T1270 001:092 JLINK_WriteReg(R2, 0x00000002)  returns 0x00 (0000ms, 0676ms total)
T1270 001:092 JLINK_WriteReg(R3, 0x00000000)  returns 0x00 (0001ms, 0677ms total)
T1270 001:093 JLINK_WriteReg(R4, 0x00000000)  returns 0x00 (0000ms, 0677ms total)
T1270 001:093 JLINK_WriteReg(R5, 0x00000000)  returns 0x00 (0000ms, 0677ms total)
T1270 001:093 JLINK_WriteReg(R6, 0x00000000)  returns 0x00 (0000ms, 0677ms total)
T1270 001:093 JLINK_WriteReg(R7, 0x00000000)  returns 0x00 (0000ms, 0677ms total)
T1270 001:093 JLINK_WriteReg(R8, 0x00000000)  returns 0x00 (0000ms, 0677ms total)
T1270 001:093 JLINK_WriteReg(R9, 0x20000170)  returns 0x00 (0000ms, 0677ms total)
T1270 001:093 JLINK_WriteReg(R10, 0x00000000)  returns 0x00 (0000ms, 0677ms total)
T1270 001:093 JLINK_WriteReg(R11, 0x00000000)  returns 0x00 (0000ms, 0677ms total)
T1270 001:093 JLINK_WriteReg(R12, 0x00000000)  returns 0x00 (0000ms, 0677ms total)
T1270 001:093 JLINK_WriteReg(R13 (SP), 0x20001000)  returns 0x00 (0000ms, 0677ms total)
T1270 001:093 JLINK_WriteReg(R14, 0x20000001)  returns 0x00 (0000ms, 0677ms total)
T1270 001:093 JLINK_WriteReg(R15 (PC), 0x2000003C)  returns 0x00 (0000ms, 0677ms total)
T1270 001:093 JLINK_WriteReg(XPSR, 0x01000000)  returns 0x00 (0000ms, 0677ms total)
T1270 001:093 JLINK_WriteReg(MSP, 0x20001000)  returns 0x00 (0001ms, 0678ms total)
T1270 001:094 JLINK_WriteReg(PSP, 0x20001000)  returns 0x00 (0000ms, 0678ms total)
T1270 001:094 JLINK_WriteReg(CFBP, 0x00000000)  returns 0x00 (0000ms, 0678ms total)
T1270 001:094 JLINK_SetBPEx(Addr = 0x20000000, Type = 0xFFFFFFF2) -- CPU_ReadMem(4 bytes @ 0x20000000) -- CPU_WriteMem(4 bytes @ 0x20000000) -- CPU_ReadMem(4 bytes @ 0x20000000) -- CPU_WriteMem(4 bytes @ 0x20000000) -- CPU_ReadMem(2 bytes @ 0x20000000)  returns 0x00000007 (0004ms, 0682ms total)
T1270 001:098 JLINK_Go() -- CPU_WriteMem(2 bytes @ 0x20000000) (0003ms, 0685ms total)
T1270 001:101 JLINK_IsHalted() -- CPU_ReadMem(2 bytes @ 0x20000000)  returns TRUE (0004ms, 0689ms total)
T1270 001:105 JLINK_ReadReg(R15 (PC))  returns 0x20000000 (0000ms, 0685ms total)
T1270 001:105 JLINK_ClrBPEx(BPHandle = 0x00000007)  returns 0x00 (0000ms, 0685ms total)
T1270 001:105 JLINK_ReadReg(R0)  returns 0x00000000 (0000ms, 0685ms total)
T1270 001:106 JLINK_WriteMem(0x200001A0, 0x0400 Bytes, ...) - Data: 58 86 00 20 25 02 00 00 51 45 00 00 F9 2B 00 00 ... -- CPU_WriteMem(1024 bytes @ 0x200001A0)  returns 0x400 (0005ms, 0690ms total)
T1270 001:111 JLINK_WriteReg(R0, 0x00000000)  returns 0x00 (0000ms, 0690ms total)
T1270 001:111 JLINK_WriteReg(R1, 0x00000400)  returns 0x00 (0000ms, 0690ms total)
T1270 001:111 JLINK_WriteReg(R2, 0x200001A0)  returns 0x00 (0000ms, 0690ms total)
T1270 001:111 JLINK_WriteReg(R3, 0x00000000)  returns 0x00 (0000ms, 0690ms total)
T1270 001:111 JLINK_WriteReg(R4, 0x00000000)  returns 0x00 (0000ms, 0690ms total)
T1270 001:111 JLINK_WriteReg(R5, 0x00000000)  returns 0x00 (0000ms, 0690ms total)
T1270 001:111 JLINK_WriteReg(R6, 0x00000000)  returns 0x00 (0000ms, 0690ms total)
T1270 001:111 JLINK_WriteReg(R7, 0x00000000)  returns 0x00 (0000ms, 0690ms total)
T1270 001:111 JLINK_WriteReg(R8, 0x00000000)  returns 0x00 (0000ms, 0690ms total)
T1270 001:111 JLINK_WriteReg(R9, 0x20000170)  returns 0x00 (0000ms, 0690ms total)
T1270 001:111 JLINK_WriteReg(R10, 0x00000000)  returns 0x00 (0000ms, 0690ms total)
T1270 001:111 JLINK_WriteReg(R11, 0x00000000)  returns 0x00 (0000ms, 0690ms total)
T1270 001:111 JLINK_WriteReg(R12, 0x00000000)  returns 0x00 (0001ms, 0691ms total)
T1270 001:112 JLINK_WriteReg(R13 (SP), 0x20001000)  returns 0x00 (0000ms, 0691ms total)
T1270 001:112 JLINK_WriteReg(R14, 0x20000001)  returns 0x00 (0000ms, 0691ms total)
T1270 001:112 JLINK_WriteReg(R15 (PC), 0x200000E8)  returns 0x00 (0000ms, 0691ms total)
T1270 001:112 JLINK_WriteReg(XPSR, 0x01000000)  returns 0x00 (0000ms, 0691ms total)
T1270 001:112 JLINK_WriteReg(MSP, 0x20001000)  returns 0x00 (0000ms, 0691ms total)
T1270 001:112 JLINK_WriteReg(PSP, 0x20001000)  returns 0x00 (0000ms, 0691ms total)
T1270 001:112 JLINK_WriteReg(CFBP, 0x00000000)  returns 0x00 (0000ms, 0691ms total)
T1270 001:112 JLINK_SetBPEx(Addr = 0x20000000, Type = 0xFFFFFFF2)  returns 0x00000008 (0000ms, 0691ms total)
T1270 001:112 JLINK_Go() (0002ms, 0693ms total)
T1270 001:114 JLINK_IsHalted()  returns FALSE (0001ms, 0694ms total)
T1270 001:123 JLINK_IsHalted() -- CPU_ReadMem(2 bytes @ 0x20000000)  returns TRUE (0003ms, 0696ms total)
T1270 001:126 JLINK_ReadReg(R15 (PC))  returns 0x20000000 (0000ms, 0693ms total)
T1270 001:126 JLINK_ClrBPEx(BPHandle = 0x00000008)  returns 0x00 (0000ms, 0693ms total)
T1270 001:126 JLINK_ReadReg(R0)  returns 0x00000000 (0001ms, 0694ms total)
T1270 001:128 JLINK_WriteMem(0x200001A0, 0x0400 Bytes, ...) - Data: 2B 03 00 00 2B 03 00 00 2B 03 00 00 2B 03 00 00 ... -- CPU_WriteMem(1024 bytes @ 0x200001A0)  returns 0x400 (0004ms, 0698ms total)
T1270 001:132 JLINK_WriteReg(R0, 0x00000400)  returns 0x00 (0000ms, 0698ms total)
T1270 001:132 JLINK_WriteReg(R1, 0x00000400)  returns 0x00 (0000ms, 0698ms total)
T1270 001:132 JLINK_WriteReg(R2, 0x200001A0)  returns 0x00 (0000ms, 0698ms total)
T1270 001:132 JLINK_WriteReg(R3, 0x00000000)  returns 0x00 (0000ms, 0698ms total)
T1270 001:132 JLINK_WriteReg(R4, 0x00000000)  returns 0x00 (0000ms, 0698ms total)
T1270 001:132 JLINK_WriteReg(R5, 0x00000000)  returns 0x00 (0001ms, 0699ms total)
T1270 001:133 JLINK_WriteReg(R6, 0x00000000)  returns 0x00 (0000ms, 0699ms total)
T1270 001:133 JLINK_WriteReg(R7, 0x00000000)  returns 0x00 (0000ms, 0699ms total)
T1270 001:133 JLINK_WriteReg(R8, 0x00000000)  returns 0x00 (0000ms, 0699ms total)
T1270 001:133 JLINK_WriteReg(R9, 0x20000170)  returns 0x00 (0000ms, 0699ms total)
T1270 001:133 JLINK_WriteReg(R10, 0x00000000)  returns 0x00 (0000ms, 0699ms total)
T1270 001:133 JLINK_WriteReg(R11, 0x00000000)  returns 0x00 (0000ms, 0699ms total)
T1270 001:133 JLINK_WriteReg(R12, 0x00000000)  returns 0x00 (0000ms, 0699ms total)
T1270 001:133 JLINK_WriteReg(R13 (SP), 0x20001000)  returns 0x00 (0000ms, 0699ms total)
T1270 001:133 JLINK_WriteReg(R14, 0x20000001)  returns 0x00 (0000ms, 0699ms total)
T1270 001:133 JLINK_WriteReg(R15 (PC), 0x200000E8)  returns 0x00 (0000ms, 0699ms total)
T1270 001:133 JLINK_WriteReg(XPSR, 0x01000000)  returns 0x00 (0000ms, 0699ms total)
T1270 001:133 JLINK_WriteReg(MSP, 0x20001000)  returns 0x00 (0000ms, 0699ms total)
T1270 001:133 JLINK_WriteReg(PSP, 0x20001000)  returns 0x00 (0000ms, 0699ms total)
T1270 001:133 JLINK_WriteReg(CFBP, 0x00000000)  returns 0x00 (0000ms, 0699ms total)
T1270 001:133 JLINK_SetBPEx(Addr = 0x20000000, Type = 0xFFFFFFF2)  returns 0x00000009 (0001ms, 0700ms total)
T1270 001:134 JLINK_Go() (0002ms, 0702ms total)
T1270 001:136 JLINK_IsHalted()  returns FALSE (0001ms, 0703ms total)
T1270 001:138 JLINK_IsHalted()  returns FALSE (0001ms, 0703ms total)
T1270 001:140 JLINK_IsHalted()  returns FALSE (0000ms, 0702ms total)
T1270 001:141 JLINK_IsHalted() -- CPU_ReadMem(2 bytes @ 0x20000000)  returns TRUE (0003ms, 0705ms total)
T1270 001:144 JLINK_ReadReg(R15 (PC))  returns 0x20000000 (0000ms, 0702ms total)
T1270 001:144 JLINK_ClrBPEx(BPHandle = 0x00000009)  returns 0x00 (0000ms, 0702ms total)
T1270 001:144 JLINK_ReadReg(R0)  returns 0x00000000 (0000ms, 0702ms total)
T1270 001:145 JLINK_WriteMem(0x200001A0, 0x0400 Bytes, ...) - Data: 06 AB 93 E8 07 00 03 AB 83 E8 07 00 50 46 0A 99 ... -- CPU_WriteMem(1024 bytes @ 0x200001A0)  returns 0x400 (0004ms, 0706ms total)
T1270 001:149 JLINK_WriteReg(R0, 0x00000800)  returns 0x00 (0000ms, 0706ms total)
T1270 001:149 JLINK_WriteReg(R1, 0x00000400)  returns 0x00 (0000ms, 0706ms total)
T1270 001:149 JLINK_WriteReg(R2, 0x200001A0)  returns 0x00 (0000ms, 0706ms total)
T1270 001:149 JLINK_WriteReg(R3, 0x00000000)  returns 0x00 (0000ms, 0706ms total)
T1270 001:149 JLINK_WriteReg(R4, 0x00000000)  returns 0x00 (0000ms, 0706ms total)
T1270 001:149 JLINK_WriteReg(R5, 0x00000000)  returns 0x00 (0000ms, 0706ms total)
T1270 001:149 JLINK_WriteReg(R6, 0x00000000)  returns 0x00 (0000ms, 0706ms total)
T1270 001:149 JLINK_WriteReg(R7, 0x00000000)  returns 0x00 (0000ms, 0706ms total)
T1270 001:149 JLINK_WriteReg(R8, 0x00000000)  returns 0x00 (0000ms, 0706ms total)
T1270 001:149 JLINK_WriteReg(R9, 0x20000170)  returns 0x00 (0000ms, 0706ms total)
T1270 001:149 JLINK_WriteReg(R10, 0x00000000)  returns 0x00 (0000ms, 0706ms total)
T1270 001:149 JLINK_WriteReg(R11, 0x00000000)  returns 0x00 (0001ms, 0707ms total)
T1270 001:150 JLINK_WriteReg(R12, 0x00000000)  returns 0x00 (0000ms, 0707ms total)
T1270 001:150 JLINK_WriteReg(R13 (SP), 0x20001000)  returns 0x00 (0000ms, 0707ms total)
T1270 001:150 JLINK_WriteReg(R14, 0x20000001)  returns 0x00 (0000ms, 0707ms total)
T1270 001:150 JLINK_WriteReg(R15 (PC), 0x200000E8)  returns 0x00 (0000ms, 0707ms total)
T1270 001:150 JLINK_WriteReg(XPSR, 0x01000000)  returns 0x00 (0000ms, 0707ms total)
T1270 001:150 JLINK_WriteReg(MSP, 0x20001000)  returns 0x00 (0000ms, 0707ms total)
T1270 001:150 JLINK_WriteReg(PSP, 0x20001000)  returns 0x00 (0000ms, 0707ms total)
T1270 001:150 JLINK_WriteReg(CFBP, 0x00000000)  returns 0x00 (0000ms, 0707ms total)
T1270 001:150 JLINK_SetBPEx(Addr = 0x20000000, Type = 0xFFFFFFF2)  returns 0x0000000A (0000ms, 0707ms total)
T1270 001:150 JLINK_Go() (0002ms, 0709ms total)
T1270 001:152 JLINK_IsHalted()  returns FALSE (0001ms, 0710ms total)
T1270 001:156 JLINK_IsHalted()  returns FALSE (0000ms, 0709ms total)
T1270 001:157 JLINK_IsHalted() -- CPU_ReadMem(2 bytes @ 0x20000000)  returns TRUE (0003ms, 0712ms total)
T1270 001:160 JLINK_ReadReg(R15 (PC))  returns 0x20000000 (0000ms, 0709ms total)
T1270 001:160 JLINK_ClrBPEx(BPHandle = 0x0000000A)  returns 0x00 (0000ms, 0709ms total)
T1270 001:160 JLINK_ReadReg(R0)  returns 0x00000000 (0000ms, 0709ms total)
T1270 001:160 JLINK_WriteMem(0x200001A0, 0x0400 Bytes, ...) - Data: 4F EA D0 00 40 EA 41 70 4F EA D1 01 10 EB 80 05 ... -- CPU_WriteMem(1024 bytes @ 0x200001A0)  returns 0x400 (0005ms, 0714ms total)
T1270 001:165 JLINK_WriteReg(R0, 0x00000C00)  returns 0x00 (0000ms, 0714ms total)
T1270 001:165 JLINK_WriteReg(R1, 0x00000400)  returns 0x00 (0000ms, 0714ms total)
T1270 001:165 JLINK_WriteReg(R2, 0x200001A0)  returns 0x00 (0000ms, 0714ms total)
T1270 001:165 JLINK_WriteReg(R3, 0x00000000)  returns 0x00 (0000ms, 0714ms total)
T1270 001:165 JLINK_WriteReg(R4, 0x00000000)  returns 0x00 (0000ms, 0714ms total)
T1270 001:165 JLINK_WriteReg(R5, 0x00000000)  returns 0x00 (0000ms, 0714ms total)
T1270 001:165 JLINK_WriteReg(R6, 0x00000000)  returns 0x00 (0000ms, 0714ms total)
T1270 001:165 JLINK_WriteReg(R7, 0x00000000)  returns 0x00 (0000ms, 0714ms total)
T1270 001:165 JLINK_WriteReg(R8, 0x00000000)  returns 0x00 (0000ms, 0714ms total)
T1270 001:165 JLINK_WriteReg(R9, 0x20000170)  returns 0x00 (0000ms, 0714ms total)
T1270 001:165 JLINK_WriteReg(R10, 0x00000000)  returns 0x00 (0000ms, 0714ms total)
T1270 001:165 JLINK_WriteReg(R11, 0x00000000)  returns 0x00 (0000ms, 0714ms total)
T1270 001:165 JLINK_WriteReg(R12, 0x00000000)  returns 0x00 (0000ms, 0714ms total)
T1270 001:165 JLINK_WriteReg(R13 (SP), 0x20001000)  returns 0x00 (0000ms, 0714ms total)
T1270 001:165 JLINK_WriteReg(R14, 0x20000001)  returns 0x00 (0000ms, 0714ms total)
T1270 001:165 JLINK_WriteReg(R15 (PC), 0x200000E8)  returns 0x00 (0000ms, 0714ms total)
T1270 001:165 JLINK_WriteReg(XPSR, 0x01000000)  returns 0x00 (0000ms, 0714ms total)
T1270 001:165 JLINK_WriteReg(MSP, 0x20001000)  returns 0x00 (0000ms, 0714ms total)
T1270 001:165 JLINK_WriteReg(PSP, 0x20001000)  returns 0x00 (0000ms, 0714ms total)
T1270 001:165 JLINK_WriteReg(CFBP, 0x00000000)  returns 0x00 (0001ms, 0715ms total)
T1270 001:166 JLINK_SetBPEx(Addr = 0x20000000, Type = 0xFFFFFFF2)  returns 0x0000000B (0000ms, 0715ms total)
T1270 001:166 JLINK_Go() (0001ms, 0716ms total)
T1270 001:167 JLINK_IsHalted()  returns FALSE (0001ms, 0717ms total)
T1270 001:169 JLINK_IsHalted()  returns FALSE (0000ms, 0716ms total)
T1270 001:170 JLINK_IsHalted()  returns FALSE (0000ms, 0716ms total)
T1270 001:171 JLINK_IsHalted()  returns FALSE (0000ms, 0716ms total)
T1270 001:172 JLINK_IsHalted() -- CPU_ReadMem(2 bytes @ 0x20000000)  returns TRUE (0003ms, 0719ms total)
T1270 001:175 JLINK_ReadReg(R15 (PC))  returns 0x20000000 (0000ms, 0716ms total)
T1270 001:175 JLINK_ClrBPEx(BPHandle = 0x0000000B)  returns 0x00 (0000ms, 0716ms total)
T1270 001:175 JLINK_ReadReg(R0)  returns 0x00000000 (0000ms, 0716ms total)
T1270 001:175 JLINK_WriteMem(0x200001A0, 0x0400 Bytes, ...) - Data: 0C F7 61 EB 07 01 0C FB 0E F7 B0 EB 07 40 72 EB ... -- CPU_WriteMem(1024 bytes @ 0x200001A0)  returns 0x400 (0004ms, 0720ms total)
T1270 001:179 JLINK_WriteReg(R0, 0x00001000)  returns 0x00 (0000ms, 0720ms total)
T1270 001:179 JLINK_WriteReg(R1, 0x00000400)  returns 0x00 (0000ms, 0720ms total)
T1270 001:179 JLINK_WriteReg(R2, 0x200001A0)  returns 0x00 (0001ms, 0721ms total)
T1270 001:180 JLINK_WriteReg(R3, 0x00000000)  returns 0x00 (0000ms, 0721ms total)
